
T2E0C 000:593 SEGGER J-Link V4.90 Log File (0000ms, 0266ms total)
T2E0C 000:593 DLL Compiled: Jul 28 2014 10:35:20 (0000ms, 0266ms total)
T2E0C 000:593 Logging started @ 2018-01-11 16:37 (0001ms, 0267ms total)
T2E0C 000:594 JLINK_SetWarnOutHandler(...) (0000ms, 0267ms total)
T2E0C 000:594 JLINK_OpenEx(...)
Firmware: J-Link ARM V8 compiled Nov 28 2014 13:44:46
Hardware: V8.00
S/N: 17935099
Feature(s): RDI,FlashDL,FlashBP,JFlash  returns O.K. (0262ms, 0529ms total)
T2E0C 000:856 JLINK_SetErrorOutHandler(...) (0001ms, 0530ms total)
T2E0C 000:857 JLINK_ExecCommand("ProjectFile = "C:\Users\15259\Desktop\YouNong upload\USER\JLinkSettings.ini"", ...)  returns 0x00 (0001ms, 0531ms total)
T2E0C 000:858 JLINK_ExecCommand("Device = STM32F103VE", ...)Device "STM32F103VE" selected (512 KB flash, 64 KB RAM).  returns 0x00 (0001ms, 0532ms total)
T2E0C 000:859 JLINK_ExecCommand("DisableConnectionTimeout", ...)  returns 0x01 (0000ms, 0532ms total)
T2E0C 000:859 JLINK_GetHardwareVersion()  returns 0x13880 (0000ms, 0532ms total)
T2E0C 000:859 JLINK_GetDLLVersion()  returns 49000 (0000ms, 0532ms total)
T2E0C 000:859 JLINK_GetFirmwareString(...) (0000ms, 0532ms total)
T2E0C 000:859 JLINK_GetDLLVersion()  returns 49000 (0000ms, 0532ms total)
T2E0C 000:859 JLINK_GetCompileDateTime() (0000ms, 0532ms total)
T2E0C 000:859 JLINK_GetFirmwareString(...) (0001ms, 0533ms total)
T2E0C 000:860 JLINK_GetHardwareVersion()  returns 0x13880 (0000ms, 0533ms total)
T2E0C 000:861 JLINK_TIF_Select(JLINKARM_TIF_SWD)  returns 0x00 (0002ms, 0535ms total)
T2E0C 000:863 JLINK_SetSpeed(1000) (0000ms, 0535ms total)
T2E0C 000:863 JLINK_GetId() >0x108 TIF>Found SWD-DP with ID 0x1BA01477 >0x0D TIF> >0x28 TIF> >0x0D TIF> >0x28 TIF> >0x0D TIF> >0x21 TIF> >0x0D TIF> >0x28 TIF> >0x0D TIF> >0x28 TIF> >0x0D TIF> >0x28 TIF> >0x0D TIF> >0x21 TIF> >0x0D TIF> >0x21 TIF> >0x0D TIF> >0x28 TIF> >0x0D TIF> >0x21 TIF> >0x0D TIF> >0x21 TIF> >0x108 TIF>Found SWD-DP with ID 0x1BA01477 >0x0D TIF> >0x21 TIF> >0x0D TIF> >0x28 TIF> >0x0D TIF> >0x28 TIF> >0x0D TIF> >0x21 TIF> >0x0D TIF> >0x28 TIF> >0x0D TIF> >0x21 TIF> >0x0D TIF> >0x21 TIF>
 >0x0D TIF> >0x21 TIF> >0x0D TIF> >0x21 TIF> >0x0D TIF> >0x28 TIF> >0x0D TIF> >0x28 TIF> >0x0D TIF> >0x21 TIF> >0x0D TIF> >0x28 TIF> >0x0D TIF> >0x28 TIF> >0x0D TIF> >0x28 TIF> >0x0D TIF> >0x21 TIF> >0x0D TIF> >0x21 TIF> >0x0D TIF> >0x28 TIF> >0x0D TIF> >0x21 TIF> >0x0D TIF> >0x21 TIF>Found Cortex-M3 r1p1, Little endian. -- CPU_WriteMem(4 bytes @ 0xE0002000) -- CPU_ReadMem(4 bytes @ 0xE000EDF0) -- CPU_ReadMem(4 bytes @ 0xE0002000)FPUnit: 6 code (BP) slots and 2 literal slots
 -- CPU_ReadMem(4 bytes @ 0xE000EDFC) -- CPU_ReadMem(4 bytes @ 0xE0001000) -- CPU_WriteMem(4 bytes @ 0xE0001000) -- CPU_ReadMem(4 bytes @ 0xE00FF010)TPIU fitted. -- CPU_ReadMem(4 bytes @ 0xE00FF014)ETM fitted. -- CPU_ReadMem(4 bytes @ 0xE00FF018) >0x0D TIF> >0x21 TIF>  returns 0x1BA01477 (0048ms, 0583ms total)
T2E0C 000:911 JLINK_GetDLLVersion()  returns 49000 (0000ms, 0583ms total)
T2E0C 000:911 JLINK_CORE_GetFound()  returns 0x30000FF (0000ms, 0583ms total)
T2E0C 000:911 JLINK_ReadMem (0xE00FF000, 0x0020 Bytes, ...) -- CPU is running -- CPU_ReadMem(32 bytes @ 0xE00FF000) - Data: 03 F0 F0 FF 03 20 F0 FF 03 30 F0 FF 03 10 F0 FF ...  returns 0x00 (0002ms, 0585ms total)
T2E0C 000:913 JLINK_ReadMem (0xE000EFF0, 0x0010 Bytes, ...) -- CPU is running -- CPU_ReadMem(16 bytes @ 0xE000EFF0) - Data: 0D 00 00 00 E0 00 00 00 05 00 00 00 B1 00 00 00  returns 0x00 (0001ms, 0586ms total)
T2E0C 000:914 JLINK_ReadMem (0xE000EFD0, 0x0020 Bytes, ...) -- CPU is running -- CPU_ReadMem(32 bytes @ 0xE000EFD0) - Data: 04 00 00 00 00 00 00 00 00 00 00 00 00 00 00 00 ...  returns 0x00 (0002ms, 0588ms total)
T2E0C 000:916 JLINK_ReadMem (0xE0001FF0, 0x0010 Bytes, ...) -- CPU is running -- CPU_ReadMem(16 bytes @ 0xE0001FF0) - Data: 0D 00 00 00 E0 00 00 00 05 00 00 00 B1 00 00 00  returns 0x00 (0001ms, 0589ms total)
T2E0C 000:917 JLINK_ReadMem (0xE0001FD0, 0x0020 Bytes, ...) -- CPU is running -- CPU_ReadMem(32 bytes @ 0xE0001FD0) - Data: 04 00 00 00 00 00 00 00 00 00 00 00 00 00 00 00 ...  returns 0x00 (0001ms, 0590ms total)
T2E0C 000:918 JLINK_ReadMem (0xE0002FF0, 0x0010 Bytes, ...) -- CPU is running -- CPU_ReadMem(16 bytes @ 0xE0002FF0) - Data: 0D 00 00 00 E0 00 00 00 05 00 00 00 B1 00 00 00  returns 0x00 (0001ms, 0591ms total)
T2E0C 000:919 JLINK_ReadMem (0xE0002FD0, 0x0020 Bytes, ...) -- CPU is running -- CPU_ReadMem(32 bytes @ 0xE0002FD0) - Data: 04 00 00 00 00 00 00 00 00 00 00 00 00 00 00 00 ...  returns 0x00 (0001ms, 0592ms total)
T2E0C 000:920 JLINK_ReadMem (0xE0000FF0, 0x0010 Bytes, ...) -- CPU is running -- CPU_ReadMem(16 bytes @ 0xE0000FF0) - Data: 0D 00 00 00 E0 00 00 00 05 00 00 00 B1 00 00 00  returns 0x00 (0001ms, 0593ms total)
T2E0C 000:921 JLINK_ReadMem (0xE0000FD0, 0x0020 Bytes, ...) -- CPU is running -- CPU_ReadMem(32 bytes @ 0xE0000FD0) - Data: 04 00 00 00 00 00 00 00 00 00 00 00 00 00 00 00 ...  returns 0x00 (0001ms, 0594ms total)
T2E0C 000:922 JLINK_ReadMem (0xE0040FF0, 0x0010 Bytes, ...) -- CPU is running -- CPU_ReadMem(16 bytes @ 0xE0040FF0) - Data: 0D 00 00 00 90 00 00 00 05 00 00 00 B1 00 00 00  returns 0x00 (0001ms, 0595ms total)
T2E0C 000:923 JLINK_ReadMem (0xE0040FD0, 0x0020 Bytes, ...) -- CPU is running -- CPU_ReadMem(32 bytes @ 0xE0040FD0) - Data: 04 00 00 00 00 00 00 00 00 00 00 00 00 00 00 00 ...  returns 0x00 (0002ms, 0597ms total)
T2E0C 000:925 JLINK_ReadMem (0xE0041FF0, 0x0010 Bytes, ...) -- CPU is running -- CPU_ReadMem(16 bytes @ 0xE0041FF0) - Data: 0D 00 00 00 90 00 00 00 05 00 00 00 B1 00 00 00  returns 0x00 (0001ms, 0598ms total)
T2E0C 000:926 JLINK_ReadMem (0xE0041FD0, 0x0020 Bytes, ...) -- CPU is running -- CPU_ReadMem(32 bytes @ 0xE0041FD0) - Data: 04 00 00 00 00 00 00 00 00 00 00 00 00 00 00 00 ...  returns 0x00 (0001ms, 0599ms total)
T2E0C 000:927 JLINK_ReadMemU32(0xE000ED00, 0x0001 Items, ...) -- CPU is running -- CPU_ReadMem(4 bytes @ 0xE000ED00) - Data: 31 C2 1F 41  returns 0x01 (0001ms, 0600ms total)
T2E0C 000:928 JLINK_SetResetType(JLINKARM_RESET_TYPE_NORMAL)  returns JLINKARM_RESET_TYPE_NORMAL (0000ms, 0600ms total)
T2E0C 000:928 JLINK_Reset() -- CPU is running -- CPU_WriteMem(4 bytes @ 0xE000EDF0) -- CPU is running -- CPU_WriteMem(4 bytes @ 0xE000EDFC) >0x35 TIF> -- CPU is running -- CPU_WriteMem(4 bytes @ 0xE000ED0C) -- CPU is running -- CPU_ReadMem(4 bytes @ 0xE000EDF0) -- CPU is running -- CPU_ReadMem(4 bytes @ 0xE000EDF0) -- CPU is running -- CPU_WriteMem(4 bytes @ 0xE000EDF0) -- CPU is running -- CPU_WriteMem(4 bytes @ 0xE000EDFC) -- CPU is running -- CPU_ReadMem(4 bytes @ 0xE000EDF0)
 -- CPU_WriteMem(4 bytes @ 0xE0002000) -- CPU_ReadMem(4 bytes @ 0xE000EDFC) -- CPU_ReadMem(4 bytes @ 0xE0001000) (0023ms, 0623ms total)
T2E0C 000:951 JLINK_ReadReg(R15 (PC))  returns 0x08002678 (0000ms, 0623ms total)
T2E0C 000:951 JLINK_ReadReg(XPSR)  returns 0x01000000 (0000ms, 0623ms total)
T2E0C 000:951 JLINK_Halt()  returns 0x00 (0000ms, 0623ms total)
T2E0C 000:951 JLINK_IsHalted()  returns TRUE (0000ms, 0623ms total)
T2E0C 000:951 JLINK_ReadMemU32(0xE000EDF0, 0x0001 Items, ...) -- CPU_ReadMem(4 bytes @ 0xE000EDF0) - Data: 03 00 03 00  returns 0x01 (0001ms, 0624ms total)
T2E0C 000:952 JLINK_WriteU32(0xE000EDF0, 0xA05F0003) -- CPU_WriteMem(4 bytes @ 0xE000EDF0)  returns 0x00 (0001ms, 0625ms total)
T2E0C 000:953 JLINK_WriteU32(0xE000EDFC, 0x01000000) -- CPU_WriteMem(4 bytes @ 0xE000EDFC)  returns 0x00 (0001ms, 0626ms total)
T2E0C 000:954 JLINK_GetHWStatus(...)  returns 0x00 (0001ms, 0627ms total)
T2E0C 000:955 JLINK_GetNumBPUnits(Type = 0xFFFFFF00)  returns 0x06 (0000ms, 0627ms total)
T2E0C 000:955 JLINK_GetNumBPUnits(Type = 0xF0)  returns 0x2000 (0000ms, 0627ms total)
T2E0C 000:955 JLINK_GetNumWPUnits()  returns 0x04 (0000ms, 0627ms total)
T2E0C 000:956 JLINK_GetSpeed()  returns 0x3E8 (0000ms, 0627ms total)
T2E0C 000:956 JLINK_ReadMemU32(0xE000E004, 0x0001 Items, ...) -- CPU_ReadMem(4 bytes @ 0xE000E004) - Data: 01 00 00 00  returns 0x01 (0001ms, 0628ms total)
T2E0C 000:957 JLINK_ReadMemU32(0xE000E004, 0x0001 Items, ...) -- CPU_ReadMem(4 bytes @ 0xE000E004) - Data: 01 00 00 00  returns 0x01 (0001ms, 0629ms total)
T2E0C 000:958 JLINK_WriteMem(0xE0001000, 0x001C Bytes, ...) - Data: 01 00 00 00 00 00 00 00 00 00 00 00 00 00 00 00 ... -- CPU_WriteMem(28 bytes @ 0xE0001000)  returns 0x1C (0001ms, 0630ms total)
T2E0C 000:959 JLINK_ReadMem (0xE0001000, 0x001C Bytes, ...) -- CPU_ReadMem(28 bytes @ 0xE0001000) - Data: 01 00 00 40 00 00 00 00 00 00 00 00 00 00 00 00 ...  returns 0x00 (0001ms, 0631ms total)
T2E0C 000:960 JLINK_ReadReg(R15 (PC))  returns 0x08002678 (0000ms, 0631ms total)
T2E0C 000:960 JLINK_ReadReg(XPSR)  returns 0x01000000 (0000ms, 0631ms total)
T2E0C 001:038 JLINK_SetResetType(JLINKARM_RESET_TYPE_NORMAL)  returns JLINKARM_RESET_TYPE_NORMAL (0000ms, 0631ms total)
T2E0C 001:038 JLINK_Reset() -- CPU_WriteMem(4 bytes @ 0xE000EDF0) -- CPU_WriteMem(4 bytes @ 0xE000EDFC) >0x35 TIF> -- CPU_WriteMem(4 bytes @ 0xE000ED0C) -- CPU_ReadMem(4 bytes @ 0xE000EDF0) -- CPU_ReadMem(4 bytes @ 0xE000EDF0) -- CPU_WriteMem(4 bytes @ 0xE000EDF0) -- CPU_WriteMem(4 bytes @ 0xE000EDFC) -- CPU is running -- CPU_ReadMem(4 bytes @ 0xE000EDF0) -- CPU_WriteMem(4 bytes @ 0xE0002000) -- CPU_ReadMem(4 bytes @ 0xE000EDFC) -- CPU_ReadMem(4 bytes @ 0xE0001000) (0023ms, 0654ms total)
T2E0C 001:061 JLINK_ReadReg(R15 (PC))  returns 0x08002678 (0000ms, 0654ms total)
T2E0C 001:061 JLINK_ReadReg(XPSR)  returns 0x01000000 (0000ms, 0654ms total)
T2E0C 001:062 JLINK_ReadMem (0x08002578, 0x003C Bytes, ...) -- CPU_ReadMem(128 bytes @ 0x08002540) -- Updating C cache (128 bytes @ 0x08002540) -- Read from C cache (60 bytes @ 0x08002578) - Data: 1B 00 8D F8 12 80 8D F8 13 40 8D F8 14 60 8D F8 ...  returns 0x00 (0003ms, 0657ms total)
T2E0C 001:065 JLINK_ReadMem (0x080025B4, 0x003C Bytes, ...) -- CPU_ReadMem(64 bytes @ 0x080025C0) -- Updating C cache (64 bytes @ 0x080025C0) -- Read from C cache (60 bytes @ 0x080025B4) - Data: AD F8 06 00 AD F8 08 00 01 20 8D F8 0D 00 68 46 ...  returns 0x00 (0001ms, 0658ms total)
T2E0C 001:066 JLINK_ReadMem (0x080025F0, 0x003C Bytes, ...) -- CPU_ReadMem(64 bytes @ 0x08002600) -- Updating C cache (64 bytes @ 0x08002600) -- Read from C cache (60 bytes @ 0x080025F0) - Data: 05 E0 39 5D 0D F1 0B 00 01 55 60 1C 84 B2 AC 42 ...  returns 0x00 (0002ms, 0660ms total)
T2E0C 001:068 JLINK_ReadMem (0x0800262C, 0x003C Bytes, ...) -- CPU_ReadMem(64 bytes @ 0x08002640) -- Updating C cache (64 bytes @ 0x08002640) -- Read from C cache (60 bytes @ 0x0800262C) - Data: 02 DB 01 20 05 B0 F0 BD 00 20 FB E7 30 B5 85 B0 ...  returns 0x00 (0002ms, 0662ms total)
T2E0C 001:070 JLINK_ReadMem (0x08002668, 0x003C Bytes, ...) -- CPU_ReadMem(64 bytes @ 0x08002680) -- Updating C cache (64 bytes @ 0x08002680) -- Read from C cache (60 bytes @ 0x08002668) - Data: F8 D3 9D F8 0A 00 EC E7 00 08 01 40 00 64 00 40 ...  returns 0x00 (0002ms, 0664ms total)
T2E0C 002:792 JLINK_ReadMem (0x200001E4, 0x0020 Bytes, ...) -- CPU_ReadMem(128 bytes @ 0x200001C0) -- Updating C cache (128 bytes @ 0x200001C0) -- Read from C cache (32 bytes @ 0x200001E4) - Data: 00 00 00 00 00 00 00 00 00 00 00 00 00 00 00 00 ...  returns 0x00 (0003ms, 0667ms total)
T2C04 002:871 JLINK_SetBPEx(Addr = 0x0800022C, Type = 0xFFFFFFF2)  returns 0x00000001 (0000ms, 0667ms total)
T2C04 002:871 JLINK_SetBPEx(Addr = 0x08001BA0, Type = 0xFFFFFFF2)  returns 0x00000002 (0000ms, 0667ms total)
T2C04 002:871 JLINK_SetBPEx(Addr = 0x08001B80, Type = 0xFFFFFFF2)  returns 0x00000003 (0000ms, 0667ms total)
T2C04 002:871 JLINK_SetBPEx(Addr = 0x080008DA, Type = 0xFFFFFFF2)  returns 0x00000004 (0000ms, 0667ms total)
T2C04 002:871 JLINK_SetBPEx(Addr = 0x0800089E, Type = 0xFFFFFFF2)  returns 0x00000005 (0000ms, 0667ms total)
T2C04 002:871 JLINK_Go() -- CPU_WriteMem(4 bytes @ 0xE0002000) -- CPU_WriteMem(4 bytes @ 0xE0002008) -- CPU_WriteMem(4 bytes @ 0xE0002000) -- CPU_WriteMem(4 bytes @ 0xE000200C) -- CPU_WriteMem(4 bytes @ 0xE0002000) -- CPU_WriteMem(4 bytes @ 0xE0002010) -- CPU_WriteMem(4 bytes @ 0xE0002000) -- CPU_WriteMem(4 bytes @ 0xE0002014) -- CPU_WriteMem(4 bytes @ 0xE0002000) -- CPU_WriteMem(4 bytes @ 0xE0002018) -- CPU_WriteMem(4 bytes @ 0xE000201C) -- CPU_WriteMem(4 bytes @ 0xE0001004) (0013ms, 0680ms total)
T2C04 002:984 JLINK_IsHalted()  returns TRUE (0005ms, 0685ms total)
T2C04 002:989 JLINK_Halt()  returns 0x00 (0000ms, 0680ms total)
T2C04 002:989 JLINK_IsHalted()  returns TRUE (0000ms, 0680ms total)
T2C04 002:989 JLINK_IsHalted()  returns TRUE (0000ms, 0680ms total)
T2C04 002:989 JLINK_IsHalted()  returns TRUE (0000ms, 0680ms total)
T2C04 002:989 JLINK_ReadReg(R15 (PC))  returns 0x0800022C (0000ms, 0680ms total)
T2C04 002:989 JLINK_ReadReg(XPSR)  returns 0x61000000 (0000ms, 0680ms total)
T2C04 002:989 JLINK_ClrBPEx(BPHandle = 0x00000001)  returns 0x00 (0000ms, 0680ms total)
T2C04 002:989 JLINK_ClrBPEx(BPHandle = 0x00000002)  returns 0x00 (0000ms, 0680ms total)
T2C04 002:989 JLINK_ClrBPEx(BPHandle = 0x00000003)  returns 0x00 (0000ms, 0680ms total)
T2C04 002:989 JLINK_ClrBPEx(BPHandle = 0x00000004)  returns 0x00 (0000ms, 0680ms total)
T2C04 002:989 JLINK_ClrBPEx(BPHandle = 0x00000005)  returns 0x00 (0000ms, 0680ms total)
T2C04 002:989 JLINK_ReadMemU32(0xE000ED30, 0x0001 Items, ...) -- CPU_ReadMem(4 bytes @ 0xE000ED30) - Data: 03 00 00 00  returns 0x01 (0001ms, 0681ms total)
T2C04 002:990 JLINK_ReadMemU32(0xE0001028, 0x0001 Items, ...) -- CPU_ReadMem(4 bytes @ 0xE0001028) - Data: 00 00 00 00  returns 0x01 (0001ms, 0682ms total)
T2C04 002:991 JLINK_ReadMemU32(0xE0001038, 0x0001 Items, ...) -- CPU_ReadMem(4 bytes @ 0xE0001038) - Data: 00 02 00 00  returns 0x01 (0001ms, 0683ms total)
T2C04 002:992 JLINK_ReadMemU32(0xE0001048, 0x0001 Items, ...) -- CPU_ReadMem(4 bytes @ 0xE0001048) - Data: 00 00 00 00  returns 0x01 (0001ms, 0684ms total)
T2C04 002:993 JLINK_ReadMemU32(0xE0001058, 0x0001 Items, ...) -- CPU_ReadMem(4 bytes @ 0xE0001058) - Data: 00 00 00 00  returns 0x01 (0001ms, 0685ms total)
T2C04 002:994 JLINK_ReadReg(R0)  returns 0x20000320 (0000ms, 0685ms total)
T2C04 002:994 JLINK_ReadReg(R1)  returns 0x20000520 (0000ms, 0685ms total)
T2C04 002:994 JLINK_ReadReg(R2)  returns 0x20000520 (0000ms, 0685ms total)
T2C04 002:994 JLINK_ReadReg(R3)  returns 0x20000520 (0000ms, 0685ms total)
T2C04 002:994 JLINK_ReadReg(R4)  returns 0x00000000 (0000ms, 0685ms total)
T2C04 002:994 JLINK_ReadReg(R5)  returns 0x200002BC (0000ms, 0685ms total)
T2C04 002:994 JLINK_ReadReg(R6)  returns 0x00000000 (0000ms, 0685ms total)
T2C04 002:994 JLINK_ReadReg(R7)  returns 0x00000000 (0000ms, 0685ms total)
T2C04 002:994 JLINK_ReadReg(R8)  returns 0x00000000 (0000ms, 0685ms total)
T2C04 002:994 JLINK_ReadReg(R9)  returns 0x00000000 (0000ms, 0685ms total)
T2C04 002:994 JLINK_ReadReg(R10)  returns 0x0800D898 (0000ms, 0685ms total)
T2C04 002:994 JLINK_ReadReg(R11)  returns 0x00000000 (0000ms, 0685ms total)
T2C04 002:994 JLINK_ReadReg(R12)  returns 0x200002FC (0000ms, 0685ms total)
T2C04 002:994 JLINK_ReadReg(R13 (SP))  returns 0x20000920 (0000ms, 0685ms total)
T2C04 002:994 JLINK_ReadReg(R14)  returns 0x080001F3 (0000ms, 0685ms total)
T2C04 002:994 JLINK_ReadReg(R15 (PC))  returns 0x0800022C (0000ms, 0685ms total)
T2C04 002:994 JLINK_ReadReg(XPSR)  returns 0x61000000 (0000ms, 0685ms total)
T2C04 002:994 JLINK_ReadReg(MSP)  returns 0x20000920 (0000ms, 0685ms total)
T2C04 002:994 JLINK_ReadReg(PSP)  returns 0x20001000 (0000ms, 0685ms total)
T2C04 002:994 JLINK_ReadReg(CFBP)  returns 0x00000000 (0000ms, 0685ms total)
T2E0C 002:996 JLINK_ReadMemU32(0xE0001004, 0x0001 Items, ...) -- CPU_ReadMem(4 bytes @ 0xE0001004) - Data: 05 1A 00 00  returns 0x01 (0001ms, 0686ms total)
T2E0C 002:997 JLINK_ReadMem (0x200001E4, 0x0020 Bytes, ...) -- CPU_ReadMem(128 bytes @ 0x200001C0) -- Updating C cache (128 bytes @ 0x200001C0) -- Read from C cache (32 bytes @ 0x200001E4) - Data: 00 00 00 00 00 00 00 00 00 00 00 00 00 00 00 00 ...  returns 0x00 (0002ms, 0688ms total)
T2E0C 003:006 JLINK_ReadMem (0x0800022A, 0x0002 Bytes, ...) -- CPU_ReadMem(64 bytes @ 0x08000200) -- Updating C cache (64 bytes @ 0x08000200) -- Read from C cache (2 bytes @ 0x0800022A) - Data: 10 BD  returns 0x00 (0001ms, 0689ms total)
T2E0C 003:007 JLINK_ReadMem (0x0800022C, 0x003C Bytes, ...) -- CPU_ReadMem(64 bytes @ 0x08000240) -- Updating C cache (64 bytes @ 0x08000240) -- Read from C cache (60 bytes @ 0x0800022C) - Data: 8C B0 28 21 02 A8 09 F0 73 FE 00 24 A1 46 A2 46 ...  returns 0x00 (0002ms, 0691ms total)
T2C04 004:306 JLINK_Step() -- Read from C cache (2 bytes @ 0x0800022C) -- Simulated  returns 0x00 (0002ms, 0693ms total)
T2C04 004:308 JLINK_ReadReg(R15 (PC))  returns 0x0800022E (0000ms, 0693ms total)
T2C04 004:308 JLINK_ReadReg(XPSR)  returns 0x61000000 (0000ms, 0693ms total)
T2C04 004:308 JLINK_ReadReg(R0)  returns 0x20000320 (0000ms, 0693ms total)
T2C04 004:308 JLINK_ReadReg(R1)  returns 0x20000520 (0000ms, 0693ms total)
T2C04 004:308 JLINK_ReadReg(R2)  returns 0x20000520 (0000ms, 0693ms total)
T2C04 004:308 JLINK_ReadReg(R3)  returns 0x20000520 (0000ms, 0693ms total)
T2C04 004:308 JLINK_ReadReg(R4)  returns 0x00000000 (0000ms, 0693ms total)
T2C04 004:308 JLINK_ReadReg(R5)  returns 0x200002BC (0000ms, 0693ms total)
T2C04 004:308 JLINK_ReadReg(R6)  returns 0x00000000 (0000ms, 0693ms total)
T2C04 004:308 JLINK_ReadReg(R7)  returns 0x00000000 (0000ms, 0693ms total)
T2C04 004:308 JLINK_ReadReg(R8)  returns 0x00000000 (0000ms, 0693ms total)
T2C04 004:308 JLINK_ReadReg(R9)  returns 0x00000000 (0000ms, 0693ms total)
T2C04 004:308 JLINK_ReadReg(R10)  returns 0x0800D898 (0000ms, 0693ms total)
T2C04 004:308 JLINK_ReadReg(R11)  returns 0x00000000 (0000ms, 0693ms total)
T2C04 004:308 JLINK_ReadReg(R12)  returns 0x200002FC (0000ms, 0693ms total)
T2C04 004:308 JLINK_ReadReg(R13 (SP))  returns 0x200008F0 (0000ms, 0693ms total)
T2C04 004:308 JLINK_ReadReg(R14)  returns 0x080001F3 (0000ms, 0693ms total)
T2C04 004:308 JLINK_ReadReg(R15 (PC))  returns 0x0800022E (0000ms, 0693ms total)
T2C04 004:308 JLINK_ReadReg(XPSR)  returns 0x61000000 (0000ms, 0693ms total)
T2C04 004:308 JLINK_ReadReg(MSP)  returns 0x200008F0 (0000ms, 0693ms total)
T2C04 004:308 JLINK_ReadReg(PSP)  returns 0x20001000 (0000ms, 0693ms total)
T2C04 004:308 JLINK_ReadReg(CFBP)  returns 0x00000000 (0000ms, 0693ms total)
T2E0C 004:310 JLINK_ReadMemU32(0xE0001004, 0x0001 Items, ...) - Data: 05 1A 00 00  returns 0x01 (0000ms, 0693ms total)
T2E0C 004:310 JLINK_ReadMem (0x200001E4, 0x0020 Bytes, ...) -- Read from C cache (32 bytes @ 0x200001E4) - Data: 00 00 00 00 00 00 00 00 00 00 00 00 00 00 00 00 ...  returns 0x00 (0000ms, 0693ms total)
T2E0C 004:320 JLINK_ReadMem (0x0800022A, 0x0002 Bytes, ...) -- Read from C cache (2 bytes @ 0x0800022A) - Data: 10 BD  returns 0x00 (0000ms, 0693ms total)
T2E0C 004:320 JLINK_ReadMem (0x0800022C, 0x003C Bytes, ...) -- Read from C cache (60 bytes @ 0x0800022C) - Data: 8C B0 28 21 02 A8 09 F0 73 FE 00 24 A1 46 A2 46 ...  returns 0x00 (0000ms, 0693ms total)
T2C04 004:475 JLINK_Step() -- Read from C cache (2 bytes @ 0x0800022E) -- Simulated  returns 0x00 (0000ms, 0693ms total)
T2C04 004:475 JLINK_ReadReg(R15 (PC))  returns 0x08000230 (0000ms, 0693ms total)
T2C04 004:475 JLINK_ReadReg(XPSR)  returns 0x21000000 (0000ms, 0693ms total)
T2C04 004:475 JLINK_Step() -- Read from C cache (2 bytes @ 0x08000230) -- Simulated  returns 0x00 (0000ms, 0693ms total)
T2C04 004:475 JLINK_ReadReg(R15 (PC))  returns 0x08000232 (0000ms, 0693ms total)
T2C04 004:475 JLINK_ReadReg(XPSR)  returns 0x21000000 (0000ms, 0693ms total)
T2C04 004:475 JLINK_SetBPEx(Addr = 0x08000236, Type = 0xFFFFFFF2)  returns 0x00000006 (0000ms, 0693ms total)
T2C04 004:475 JLINK_SetBPEx(Addr = 0x08001BA0, Type = 0xFFFFFFF2)  returns 0x00000007 (0000ms, 0693ms total)
T2C04 004:475 JLINK_SetBPEx(Addr = 0x08001B80, Type = 0xFFFFFFF2)  returns 0x00000008 (0001ms, 0694ms total)
T2C04 004:476 JLINK_SetBPEx(Addr = 0x080008DA, Type = 0xFFFFFFF2)  returns 0x00000009 (0000ms, 0694ms total)
T2C04 004:476 JLINK_SetBPEx(Addr = 0x0800089E, Type = 0xFFFFFFF2)  returns 0x0000000A (0000ms, 0694ms total)
T2C04 004:476 JLINK_Go() -- CPU_WriteMem(4 bytes @ 0xE0002000) -- CPU_WriteMem(4 bytes @ 0xE0002000) -- CPU_WriteMem(4 bytes @ 0xE0002000) -- CPU_WriteMem(4 bytes @ 0xE0002000) -- CPU_WriteMem(4 bytes @ 0xE0002000) -- CPU_WriteMem(4 bytes @ 0xE0002008) -- CPU_WriteMem(4 bytes @ 0xE0001004) (0008ms, 0702ms total)
T2C04 004:585 JLINK_IsHalted()  returns TRUE (0005ms, 0707ms total)
T2C04 004:590 JLINK_Halt()  returns 0x00 (0000ms, 0702ms total)
T2C04 004:590 JLINK_IsHalted()  returns TRUE (0000ms, 0702ms total)
T2C04 004:590 JLINK_IsHalted()  returns TRUE (0000ms, 0702ms total)
T2C04 004:590 JLINK_IsHalted()  returns TRUE (0000ms, 0702ms total)
T2C04 004:590 JLINK_ReadReg(R15 (PC))  returns 0x08000236 (0000ms, 0702ms total)
T2C04 004:590 JLINK_ReadReg(XPSR)  returns 0x41000000 (0000ms, 0702ms total)
T2C04 004:590 JLINK_ClrBPEx(BPHandle = 0x00000006)  returns 0x00 (0000ms, 0702ms total)
T2C04 004:590 JLINK_ClrBPEx(BPHandle = 0x00000007)  returns 0x00 (0000ms, 0702ms total)
T2C04 004:590 JLINK_ClrBPEx(BPHandle = 0x00000008)  returns 0x00 (0000ms, 0702ms total)
T2C04 004:590 JLINK_ClrBPEx(BPHandle = 0x00000009)  returns 0x00 (0000ms, 0702ms total)
T2C04 004:590 JLINK_ClrBPEx(BPHandle = 0x0000000A)  returns 0x00 (0000ms, 0702ms total)
T2C04 004:590 JLINK_ReadMemU32(0xE000ED30, 0x0001 Items, ...) -- CPU_ReadMem(4 bytes @ 0xE000ED30) - Data: 03 00 00 00  returns 0x01 (0001ms, 0703ms total)
T2C04 004:591 JLINK_ReadMemU32(0xE0001028, 0x0001 Items, ...) -- CPU_ReadMem(4 bytes @ 0xE0001028) - Data: 00 00 00 00  returns 0x01 (0001ms, 0704ms total)
T2C04 004:592 JLINK_ReadMemU32(0xE0001038, 0x0001 Items, ...) -- CPU_ReadMem(4 bytes @ 0xE0001038) - Data: 00 02 00 00  returns 0x01 (0001ms, 0705ms total)
T2C04 004:593 JLINK_ReadMemU32(0xE0001048, 0x0001 Items, ...) -- CPU_ReadMem(4 bytes @ 0xE0001048) - Data: 00 00 00 00  returns 0x01 (0001ms, 0706ms total)
T2C04 004:594 JLINK_ReadMemU32(0xE0001058, 0x0001 Items, ...) -- CPU_ReadMem(4 bytes @ 0xE0001058) - Data: 00 00 00 00  returns 0x01 (0000ms, 0706ms total)
T2C04 004:595 JLINK_ReadReg(R0)  returns 0x20000920 (0000ms, 0706ms total)
T2C04 004:595 JLINK_ReadReg(R1)  returns 0x00000000 (0000ms, 0706ms total)
T2C04 004:595 JLINK_ReadReg(R2)  returns 0x00000000 (0000ms, 0706ms total)
T2C04 004:595 JLINK_ReadReg(R3)  returns 0x00000000 (0000ms, 0706ms total)
T2C04 004:595 JLINK_ReadReg(R4)  returns 0x00000000 (0000ms, 0706ms total)
T2C04 004:595 JLINK_ReadReg(R5)  returns 0x200002BC (0000ms, 0706ms total)
T2C04 004:595 JLINK_ReadReg(R6)  returns 0x00000000 (0000ms, 0706ms total)
T2C04 004:595 JLINK_ReadReg(R7)  returns 0x00000000 (0000ms, 0706ms total)
T2C04 004:595 JLINK_ReadReg(R8)  returns 0x00000000 (0000ms, 0706ms total)
T2C04 004:595 JLINK_ReadReg(R9)  returns 0x00000000 (0000ms, 0706ms total)
T2C04 004:595 JLINK_ReadReg(R10)  returns 0x0800D898 (0000ms, 0706ms total)
T2C04 004:595 JLINK_ReadReg(R11)  returns 0x00000000 (0000ms, 0706ms total)
T2C04 004:595 JLINK_ReadReg(R12)  returns 0x00000000 (0000ms, 0706ms total)
T2C04 004:595 JLINK_ReadReg(R13 (SP))  returns 0x200008F0 (0000ms, 0706ms total)
T2C04 004:595 JLINK_ReadReg(R14)  returns 0x08000237 (0000ms, 0706ms total)
T2C04 004:595 JLINK_ReadReg(R15 (PC))  returns 0x08000236 (0000ms, 0706ms total)
T2C04 004:595 JLINK_ReadReg(XPSR)  returns 0x41000000 (0000ms, 0706ms total)
T2C04 004:595 JLINK_ReadReg(MSP)  returns 0x200008F0 (0000ms, 0706ms total)
T2C04 004:595 JLINK_ReadReg(PSP)  returns 0x20001000 (0000ms, 0706ms total)
T2C04 004:595 JLINK_ReadReg(CFBP)  returns 0x00000000 (0000ms, 0706ms total)
T2E0C 004:597 JLINK_ReadMemU32(0xE0001004, 0x0001 Items, ...) -- CPU_ReadMem(4 bytes @ 0xE0001004) - Data: 35 1A 00 00  returns 0x01 (0001ms, 0707ms total)
T2E0C 004:598 JLINK_ReadMem (0x200001E4, 0x0020 Bytes, ...) -- CPU_ReadMem(128 bytes @ 0x200001C0) -- Updating C cache (128 bytes @ 0x200001C0) -- Read from C cache (32 bytes @ 0x200001E4) - Data: 00 00 00 00 00 00 00 00 00 00 00 00 00 00 00 00 ...  returns 0x00 (0003ms, 0710ms total)
T2E0C 004:605 JLINK_ReadMem (0x0800022E, 0x0002 Bytes, ...) -- CPU_ReadMem(64 bytes @ 0x08000200) -- Updating C cache (64 bytes @ 0x08000200) -- Read from C cache (2 bytes @ 0x0800022E) - Data: 28 21  returns 0x00 (0002ms, 0712ms total)
T2E0C 004:607 JLINK_ReadMem (0x08000230, 0x003C Bytes, ...) -- CPU_ReadMem(64 bytes @ 0x08000240) -- Updating C cache (64 bytes @ 0x08000240) -- Read from C cache (60 bytes @ 0x08000230) - Data: 02 A8 09 F0 73 FE 00 24 A1 46 A2 46 00 BF 01 F0 ...  returns 0x00 (0002ms, 0714ms total)
T2C04 004:805 JLINK_Step() -- Read from C cache (2 bytes @ 0x08000236) -- Simulated  returns 0x00 (0000ms, 0714ms total)
T2C04 004:805 JLINK_ReadReg(R15 (PC))  returns 0x08000238 (0000ms, 0714ms total)
T2C04 004:805 JLINK_ReadReg(XPSR)  returns 0x41000000 (0000ms, 0714ms total)
T2C04 004:805 JLINK_ReadReg(R0)  returns 0x20000920 (0000ms, 0714ms total)
T2C04 004:805 JLINK_ReadReg(R1)  returns 0x00000000 (0000ms, 0714ms total)
T2C04 004:805 JLINK_ReadReg(R2)  returns 0x00000000 (0000ms, 0714ms total)
T2C04 004:805 JLINK_ReadReg(R3)  returns 0x00000000 (0000ms, 0714ms total)
T2C04 004:805 JLINK_ReadReg(R4)  returns 0x00000000 (0000ms, 0714ms total)
T2C04 004:805 JLINK_ReadReg(R5)  returns 0x200002BC (0000ms, 0714ms total)
T2C04 004:805 JLINK_ReadReg(R6)  returns 0x00000000 (0000ms, 0714ms total)
T2C04 004:805 JLINK_ReadReg(R7)  returns 0x00000000 (0000ms, 0714ms total)
T2C04 004:805 JLINK_ReadReg(R8)  returns 0x00000000 (0000ms, 0714ms total)
T2C04 004:805 JLINK_ReadReg(R9)  returns 0x00000000 (0000ms, 0714ms total)
T2C04 004:805 JLINK_ReadReg(R10)  returns 0x0800D898 (0000ms, 0714ms total)
T2C04 004:805 JLINK_ReadReg(R11)  returns 0x00000000 (0000ms, 0714ms total)
T2C04 004:805 JLINK_ReadReg(R12)  returns 0x00000000 (0000ms, 0714ms total)
T2C04 004:805 JLINK_ReadReg(R13 (SP))  returns 0x200008F0 (0000ms, 0714ms total)
T2C04 004:805 JLINK_ReadReg(R14)  returns 0x08000237 (0000ms, 0714ms total)
T2C04 004:805 JLINK_ReadReg(R15 (PC))  returns 0x08000238 (0000ms, 0714ms total)
T2C04 004:805 JLINK_ReadReg(XPSR)  returns 0x41000000 (0000ms, 0714ms total)
T2C04 004:805 JLINK_ReadReg(MSP)  returns 0x200008F0 (0000ms, 0714ms total)
T2C04 004:805 JLINK_ReadReg(PSP)  returns 0x20001000 (0000ms, 0714ms total)
T2C04 004:805 JLINK_ReadReg(CFBP)  returns 0x00000000 (0000ms, 0714ms total)
T2E0C 004:806 JLINK_ReadMemU32(0xE0001004, 0x0001 Items, ...) - Data: 35 1A 00 00  returns 0x01 (0000ms, 0714ms total)
T2E0C 004:807 JLINK_ReadMem (0x200001E4, 0x0020 Bytes, ...) -- Read from C cache (32 bytes @ 0x200001E4) - Data: 00 00 00 00 00 00 00 00 00 00 00 00 00 00 00 00 ...  returns 0x00 (0000ms, 0714ms total)
T2E0C 004:814 JLINK_ReadMem (0x08000232, 0x0002 Bytes, ...) -- Read from C cache (2 bytes @ 0x08000232) - Data: 09 F0  returns 0x00 (0000ms, 0714ms total)
T2E0C 004:814 JLINK_ReadMem (0x08000234, 0x003C Bytes, ...) -- Read from C cache (60 bytes @ 0x08000234) - Data: 73 FE 00 24 A1 46 A2 46 00 BF 01 F0 BB FC 4F F4 ...  returns 0x00 (0000ms, 0714ms total)
T2C04 004:966 JLINK_Step() -- Read from C cache (2 bytes @ 0x08000238) -- Simulated  returns 0x00 (0000ms, 0714ms total)
T2C04 004:966 JLINK_ReadReg(R15 (PC))  returns 0x0800023A (0000ms, 0714ms total)
T2C04 004:966 JLINK_ReadReg(XPSR)  returns 0x41000000 (0000ms, 0714ms total)
T2C04 004:966 JLINK_ReadReg(R0)  returns 0x20000920 (0000ms, 0714ms total)
T2C04 004:966 JLINK_ReadReg(R1)  returns 0x00000000 (0000ms, 0714ms total)
T2C04 004:966 JLINK_ReadReg(R2)  returns 0x00000000 (0000ms, 0714ms total)
T2C04 004:966 JLINK_ReadReg(R3)  returns 0x00000000 (0001ms, 0715ms total)
T2C04 004:967 JLINK_ReadReg(R4)  returns 0x00000000 (0000ms, 0715ms total)
T2C04 004:967 JLINK_ReadReg(R5)  returns 0x200002BC (0000ms, 0715ms total)
T2C04 004:967 JLINK_ReadReg(R6)  returns 0x00000000 (0000ms, 0715ms total)
T2C04 004:967 JLINK_ReadReg(R7)  returns 0x00000000 (0000ms, 0715ms total)
T2C04 004:967 JLINK_ReadReg(R8)  returns 0x00000000 (0000ms, 0715ms total)
T2C04 004:967 JLINK_ReadReg(R9)  returns 0x00000000 (0000ms, 0715ms total)
T2C04 004:967 JLINK_ReadReg(R10)  returns 0x0800D898 (0000ms, 0715ms total)
T2C04 004:967 JLINK_ReadReg(R11)  returns 0x00000000 (0000ms, 0715ms total)
T2C04 004:967 JLINK_ReadReg(R12)  returns 0x00000000 (0000ms, 0715ms total)
T2C04 004:967 JLINK_ReadReg(R13 (SP))  returns 0x200008F0 (0000ms, 0715ms total)
T2C04 004:967 JLINK_ReadReg(R14)  returns 0x08000237 (0000ms, 0715ms total)
T2C04 004:967 JLINK_ReadReg(R15 (PC))  returns 0x0800023A (0000ms, 0715ms total)
T2C04 004:967 JLINK_ReadReg(XPSR)  returns 0x41000000 (0000ms, 0715ms total)
T2C04 004:967 JLINK_ReadReg(MSP)  returns 0x200008F0 (0000ms, 0715ms total)
T2C04 004:967 JLINK_ReadReg(PSP)  returns 0x20001000 (0000ms, 0715ms total)
T2C04 004:967 JLINK_ReadReg(CFBP)  returns 0x00000000 (0000ms, 0715ms total)
T2E0C 004:968 JLINK_ReadMemU32(0xE0001004, 0x0001 Items, ...) - Data: 35 1A 00 00  returns 0x01 (0000ms, 0715ms total)
T2E0C 004:968 JLINK_ReadMem (0x200001E4, 0x0020 Bytes, ...) -- Read from C cache (32 bytes @ 0x200001E4) - Data: 00 00 00 00 00 00 00 00 00 00 00 00 00 00 00 00 ...  returns 0x00 (0000ms, 0715ms total)
T2E0C 004:975 JLINK_ReadMem (0x08000238, 0x003C Bytes, ...) -- Read from C cache (60 bytes @ 0x08000238) - Data: A1 46 A2 46 00 BF 01 F0 BB FC 4F F4 A0 60 02 F0 ...  returns 0x00 (0000ms, 0715ms total)
T2C04 005:133 JLINK_Step() -- Read from C cache (2 bytes @ 0x0800023A) -- Simulated  returns 0x00 (0001ms, 0716ms total)
T2C04 005:134 JLINK_ReadReg(R15 (PC))  returns 0x0800023C (0000ms, 0716ms total)
T2C04 005:134 JLINK_ReadReg(XPSR)  returns 0x41000000 (0000ms, 0716ms total)
T2C04 005:134 JLINK_ReadReg(R0)  returns 0x20000920 (0000ms, 0716ms total)
T2C04 005:134 JLINK_ReadReg(R1)  returns 0x00000000 (0000ms, 0716ms total)
T2C04 005:134 JLINK_ReadReg(R2)  returns 0x00000000 (0000ms, 0716ms total)
T2C04 005:134 JLINK_ReadReg(R3)  returns 0x00000000 (0000ms, 0716ms total)
T2C04 005:134 JLINK_ReadReg(R4)  returns 0x00000000 (0000ms, 0716ms total)
T2C04 005:134 JLINK_ReadReg(R5)  returns 0x200002BC (0000ms, 0716ms total)
T2C04 005:134 JLINK_ReadReg(R6)  returns 0x00000000 (0000ms, 0716ms total)
T2C04 005:134 JLINK_ReadReg(R7)  returns 0x00000000 (0000ms, 0716ms total)
T2C04 005:134 JLINK_ReadReg(R8)  returns 0x00000000 (0000ms, 0716ms total)
T2C04 005:134 JLINK_ReadReg(R9)  returns 0x00000000 (0000ms, 0716ms total)
T2C04 005:134 JLINK_ReadReg(R10)  returns 0x00000000 (0000ms, 0716ms total)
T2C04 005:134 JLINK_ReadReg(R11)  returns 0x00000000 (0000ms, 0716ms total)
T2C04 005:134 JLINK_ReadReg(R12)  returns 0x00000000 (0000ms, 0716ms total)
T2C04 005:134 JLINK_ReadReg(R13 (SP))  returns 0x200008F0 (0000ms, 0716ms total)
T2C04 005:134 JLINK_ReadReg(R14)  returns 0x08000237 (0000ms, 0716ms total)
T2C04 005:134 JLINK_ReadReg(R15 (PC))  returns 0x0800023C (0000ms, 0716ms total)
T2C04 005:134 JLINK_ReadReg(XPSR)  returns 0x41000000 (0000ms, 0716ms total)
T2C04 005:134 JLINK_ReadReg(MSP)  returns 0x200008F0 (0000ms, 0716ms total)
T2C04 005:134 JLINK_ReadReg(PSP)  returns 0x20001000 (0000ms, 0716ms total)
T2C04 005:134 JLINK_ReadReg(CFBP)  returns 0x00000000 (0000ms, 0716ms total)
T2E0C 005:143 JLINK_ReadMemU32(0xE0001004, 0x0001 Items, ...) - Data: 35 1A 00 00  returns 0x01 (0000ms, 0716ms total)
T2E0C 005:144 JLINK_ReadMem (0x200001E4, 0x0020 Bytes, ...) -- Read from C cache (32 bytes @ 0x200001E4) - Data: 00 00 00 00 00 00 00 00 00 00 00 00 00 00 00 00 ...  returns 0x00 (0000ms, 0716ms total)
T2E0C 005:156 JLINK_ReadMem (0x0800023A, 0x0002 Bytes, ...) -- Read from C cache (2 bytes @ 0x0800023A) - Data: A2 46  returns 0x00 (0000ms, 0716ms total)
T2E0C 005:156 JLINK_ReadMem (0x0800023C, 0x003C Bytes, ...) -- Read from C cache (60 bytes @ 0x0800023C) - Data: 00 BF 01 F0 BB FC 4F F4 A0 60 02 F0 37 FA 4F F4 ...  returns 0x00 (0000ms, 0716ms total)
T2C04 005:336 JLINK_Step() -- Read from C cache (2 bytes @ 0x0800023C) -- Simulated  returns 0x00 (0001ms, 0717ms total)
T2C04 005:337 JLINK_ReadReg(R15 (PC))  returns 0x0800023E (0000ms, 0717ms total)
T2C04 005:337 JLINK_ReadReg(XPSR)  returns 0x41000000 (0000ms, 0717ms total)
T2C04 005:337 JLINK_ReadReg(R0)  returns 0x20000920 (0000ms, 0717ms total)
T2C04 005:337 JLINK_ReadReg(R1)  returns 0x00000000 (0000ms, 0717ms total)
T2C04 005:337 JLINK_ReadReg(R2)  returns 0x00000000 (0000ms, 0717ms total)
T2C04 005:337 JLINK_ReadReg(R3)  returns 0x00000000 (0000ms, 0717ms total)
T2C04 005:337 JLINK_ReadReg(R4)  returns 0x00000000 (0000ms, 0717ms total)
T2C04 005:337 JLINK_ReadReg(R5)  returns 0x200002BC (0000ms, 0717ms total)
T2C04 005:337 JLINK_ReadReg(R6)  returns 0x00000000 (0000ms, 0717ms total)
T2C04 005:337 JLINK_ReadReg(R7)  returns 0x00000000 (0000ms, 0717ms total)
T2C04 005:337 JLINK_ReadReg(R8)  returns 0x00000000 (0000ms, 0717ms total)
T2C04 005:337 JLINK_ReadReg(R9)  returns 0x00000000 (0000ms, 0717ms total)
T2C04 005:337 JLINK_ReadReg(R10)  returns 0x00000000 (0000ms, 0717ms total)
T2C04 005:337 JLINK_ReadReg(R11)  returns 0x00000000 (0000ms, 0717ms total)
T2C04 005:337 JLINK_ReadReg(R12)  returns 0x00000000 (0000ms, 0717ms total)
T2C04 005:337 JLINK_ReadReg(R13 (SP))  returns 0x200008F0 (0000ms, 0717ms total)
T2C04 005:337 JLINK_ReadReg(R14)  returns 0x08000237 (0000ms, 0717ms total)
T2C04 005:337 JLINK_ReadReg(R15 (PC))  returns 0x0800023E (0000ms, 0717ms total)
T2C04 005:337 JLINK_ReadReg(XPSR)  returns 0x41000000 (0000ms, 0717ms total)
T2C04 005:337 JLINK_ReadReg(MSP)  returns 0x200008F0 (0000ms, 0717ms total)
T2C04 005:337 JLINK_ReadReg(PSP)  returns 0x20001000 (0000ms, 0717ms total)
T2C04 005:337 JLINK_ReadReg(CFBP)  returns 0x00000000 (0000ms, 0717ms total)
T2E0C 005:339 JLINK_ReadMemU32(0xE0001004, 0x0001 Items, ...) - Data: 35 1A 00 00  returns 0x01 (0000ms, 0717ms total)
T2E0C 005:339 JLINK_ReadMem (0x200001E4, 0x0020 Bytes, ...) -- Read from C cache (32 bytes @ 0x200001E4) - Data: 00 00 00 00 00 00 00 00 00 00 00 00 00 00 00 00 ...  returns 0x00 (0000ms, 0717ms total)
T2E0C 005:352 JLINK_ReadMem (0x0800023A, 0x0002 Bytes, ...) -- Read from C cache (2 bytes @ 0x0800023A) - Data: A2 46  returns 0x00 (0000ms, 0717ms total)
T2E0C 005:352 JLINK_ReadMem (0x0800023C, 0x003C Bytes, ...) -- Read from C cache (60 bytes @ 0x0800023C) - Data: 00 BF 01 F0 BB FC 4F F4 A0 60 02 F0 37 FA 4F F4 ...  returns 0x00 (0000ms, 0717ms total)
T2C04 005:481 JLINK_SetBPEx(Addr = 0x08000242, Type = 0xFFFFFFF2)  returns 0x0000000B (0000ms, 0717ms total)
T2C04 005:481 JLINK_SetBPEx(Addr = 0x08001BA0, Type = 0xFFFFFFF2)  returns 0x0000000C (0000ms, 0717ms total)
T2C04 005:481 JLINK_SetBPEx(Addr = 0x08001B80, Type = 0xFFFFFFF2)  returns 0x0000000D (0000ms, 0717ms total)
T2C04 005:481 JLINK_SetBPEx(Addr = 0x080008DA, Type = 0xFFFFFFF2)  returns 0x0000000E (0000ms, 0717ms total)
T2C04 005:481 JLINK_SetBPEx(Addr = 0x0800089E, Type = 0xFFFFFFF2)  returns 0x0000000F (0000ms, 0717ms total)
T2C04 005:481 JLINK_Go() -- CPU_WriteMem(4 bytes @ 0xE0002000) -- CPU_WriteMem(4 bytes @ 0xE0002000) -- CPU_WriteMem(4 bytes @ 0xE0002000) -- CPU_WriteMem(4 bytes @ 0xE0002000) -- CPU_WriteMem(4 bytes @ 0xE0002000) -- CPU_WriteMem(4 bytes @ 0xE0002008) -- CPU_WriteMem(4 bytes @ 0xE0001004) (0008ms, 0725ms total)
T2C04 005:589 JLINK_IsHalted()  returns TRUE (0006ms, 0731ms total)
T2C04 005:595 JLINK_Halt()  returns 0x00 (0000ms, 0725ms total)
T2C04 005:595 JLINK_IsHalted()  returns TRUE (0000ms, 0725ms total)
T2C04 005:595 JLINK_IsHalted()  returns TRUE (0000ms, 0725ms total)
T2C04 005:595 JLINK_IsHalted()  returns TRUE (0000ms, 0725ms total)
T2C04 005:595 JLINK_ReadReg(R15 (PC))  returns 0x08000242 (0000ms, 0725ms total)
T2C04 005:595 JLINK_ReadReg(XPSR)  returns 0xA1000000 (0000ms, 0725ms total)
T2C04 005:595 JLINK_ClrBPEx(BPHandle = 0x0000000B)  returns 0x00 (0000ms, 0725ms total)
T2C04 005:595 JLINK_ClrBPEx(BPHandle = 0x0000000C)  returns 0x00 (0000ms, 0725ms total)
T2C04 005:595 JLINK_ClrBPEx(BPHandle = 0x0000000D)  returns 0x00 (0000ms, 0725ms total)
T2C04 005:595 JLINK_ClrBPEx(BPHandle = 0x0000000E)  returns 0x00 (0000ms, 0725ms total)
T2C04 005:595 JLINK_ClrBPEx(BPHandle = 0x0000000F)  returns 0x00 (0000ms, 0725ms total)
T2C04 005:595 JLINK_ReadMemU32(0xE000ED30, 0x0001 Items, ...) -- CPU_ReadMem(4 bytes @ 0xE000ED30) - Data: 03 00 00 00  returns 0x01 (0001ms, 0726ms total)
T2C04 005:596 JLINK_ReadMemU32(0xE0001028, 0x0001 Items, ...) -- CPU_ReadMem(4 bytes @ 0xE0001028) - Data: 00 00 00 00  returns 0x01 (0001ms, 0727ms total)
T2C04 005:597 JLINK_ReadMemU32(0xE0001038, 0x0001 Items, ...) -- CPU_ReadMem(4 bytes @ 0xE0001038) - Data: 00 02 00 00  returns 0x01 (0000ms, 0727ms total)
T2C04 005:597 JLINK_ReadMemU32(0xE0001048, 0x0001 Items, ...) -- CPU_ReadMem(4 bytes @ 0xE0001048) - Data: 00 00 00 00  returns 0x01 (0001ms, 0728ms total)
T2C04 005:598 JLINK_ReadMemU32(0xE0001058, 0x0001 Items, ...) -- CPU_ReadMem(4 bytes @ 0xE0001058) - Data: 00 00 00 00  returns 0x01 (0001ms, 0729ms total)
T2C04 005:599 JLINK_ReadReg(R0)  returns 0x00002328 (0000ms, 0729ms total)
T2C04 005:599 JLINK_ReadReg(R1)  returns 0x2000005E (0000ms, 0729ms total)
T2C04 005:599 JLINK_ReadReg(R2)  returns 0x00000000 (0000ms, 0729ms total)
T2C04 005:599 JLINK_ReadReg(R3)  returns 0x00000000 (0000ms, 0729ms total)
T2C04 005:599 JLINK_ReadReg(R4)  returns 0x00000000 (0000ms, 0729ms total)
T2C04 005:599 JLINK_ReadReg(R5)  returns 0x200002BC (0000ms, 0729ms total)
T2C04 005:599 JLINK_ReadReg(R6)  returns 0x00000000 (0000ms, 0729ms total)
T2C04 005:599 JLINK_ReadReg(R7)  returns 0x00000000 (0000ms, 0729ms total)
T2C04 005:599 JLINK_ReadReg(R8)  returns 0x00000000 (0000ms, 0729ms total)
T2C04 005:599 JLINK_ReadReg(R9)  returns 0x00000000 (0000ms, 0729ms total)
T2C04 005:599 JLINK_ReadReg(R10)  returns 0x00000000 (0000ms, 0729ms total)
T2C04 005:600 JLINK_ReadReg(R11)  returns 0x00000000 (0000ms, 0730ms total)
T2C04 005:600 JLINK_ReadReg(R12)  returns 0x00000000 (0000ms, 0730ms total)
T2C04 005:600 JLINK_ReadReg(R13 (SP))  returns 0x200008F0 (0000ms, 0730ms total)
T2C04 005:600 JLINK_ReadReg(R14)  returns 0x08001BC3 (0000ms, 0730ms total)
T2C04 005:600 JLINK_ReadReg(R15 (PC))  returns 0x08000242 (0000ms, 0730ms total)
T2C04 005:600 JLINK_ReadReg(XPSR)  returns 0xA1000000 (0000ms, 0730ms total)
T2C04 005:600 JLINK_ReadReg(MSP)  returns 0x200008F0 (0000ms, 0730ms total)
T2C04 005:600 JLINK_ReadReg(PSP)  returns 0x20001000 (0000ms, 0730ms total)
T2C04 005:600 JLINK_ReadReg(CFBP)  returns 0x00000000 (0000ms, 0730ms total)
T2E0C 005:601 JLINK_ReadMemU32(0xE0001004, 0x0001 Items, ...) -- CPU_ReadMem(4 bytes @ 0xE0001004) - Data: 9A 1A 00 00  returns 0x01 (0001ms, 0731ms total)
T2E0C 005:603 JLINK_ReadMem (0x200001E4, 0x0020 Bytes, ...) -- CPU_ReadMem(128 bytes @ 0x200001C0) -- Updating C cache (128 bytes @ 0x200001C0) -- Read from C cache (32 bytes @ 0x200001E4) - Data: 00 00 00 00 00 00 00 00 00 00 00 00 00 00 00 00 ...  returns 0x00 (0002ms, 0733ms total)
T2E0C 005:611 JLINK_ReadMem (0x0800023E, 0x0002 Bytes, ...) -- CPU_ReadMem(64 bytes @ 0x08000200) -- Updating C cache (64 bytes @ 0x08000200) -- Read from C cache (2 bytes @ 0x0800023E) - Data: 01 F0  returns 0x00 (0001ms, 0734ms total)
T2E0C 005:612 JLINK_ReadMem (0x08000240, 0x003C Bytes, ...) -- CPU_ReadMem(64 bytes @ 0x08000240) -- Updating C cache (64 bytes @ 0x08000240) -- Read from C cache (60 bytes @ 0x08000240) - Data: BB FC 4F F4 A0 60 02 F0 37 FA 4F F4 16 50 01 F0 ...  returns 0x00 (0002ms, 0736ms total)
T2C04 005:847 JLINK_Step() -- Read from C cache (2 bytes @ 0x08000242) -- Read from C cache (2 bytes @ 0x08000244) -- Simulated  returns 0x00 (0000ms, 0736ms total)
T2C04 005:847 JLINK_ReadReg(R15 (PC))  returns 0x08000246 (0000ms, 0736ms total)
T2C04 005:847 JLINK_ReadReg(XPSR)  returns 0xA1000000 (0000ms, 0736ms total)
T2C04 005:847 JLINK_SetBPEx(Addr = 0x0800024A, Type = 0xFFFFFFF2)  returns 0x00000010 (0000ms, 0736ms total)
T2C04 005:847 JLINK_SetBPEx(Addr = 0x08001BA0, Type = 0xFFFFFFF2)  returns 0x00000011 (0000ms, 0736ms total)
T2C04 005:847 JLINK_SetBPEx(Addr = 0x08001B80, Type = 0xFFFFFFF2)  returns 0x00000012 (0000ms, 0736ms total)
T2C04 005:847 JLINK_SetBPEx(Addr = 0x080008DA, Type = 0xFFFFFFF2)  returns 0x00000013 (0000ms, 0736ms total)
T2C04 005:847 JLINK_SetBPEx(Addr = 0x0800089E, Type = 0xFFFFFFF2)  returns 0x00000014 (0000ms, 0736ms total)
T2C04 005:847 JLINK_Go() -- CPU_WriteMem(4 bytes @ 0xE0002000) -- CPU_WriteMem(4 bytes @ 0xE0002000) -- CPU_WriteMem(4 bytes @ 0xE0002000) -- CPU_WriteMem(4 bytes @ 0xE0002000) -- CPU_WriteMem(4 bytes @ 0xE0002000) -- CPU_WriteMem(4 bytes @ 0xE0002008) -- CPU_WriteMem(4 bytes @ 0xE0001004) (0008ms, 0744ms total)
T2C04 005:956 JLINK_IsHalted()  returns TRUE (0005ms, 0749ms total)
T2C04 005:961 JLINK_Halt()  returns 0x00 (0000ms, 0744ms total)
T2C04 005:961 JLINK_IsHalted()  returns TRUE (0000ms, 0744ms total)
T2C04 005:961 JLINK_IsHalted()  returns TRUE (0000ms, 0744ms total)
T2C04 005:961 JLINK_IsHalted()  returns TRUE (0000ms, 0744ms total)
T2C04 005:961 JLINK_ReadReg(R15 (PC))  returns 0x0800024A (0000ms, 0744ms total)
T2C04 005:961 JLINK_ReadReg(XPSR)  returns 0x21000000 (0000ms, 0744ms total)
T2C04 005:961 JLINK_ClrBPEx(BPHandle = 0x00000010)  returns 0x00 (0000ms, 0744ms total)
T2C04 005:961 JLINK_ClrBPEx(BPHandle = 0x00000011)  returns 0x00 (0000ms, 0744ms total)
T2C04 005:961 JLINK_ClrBPEx(BPHandle = 0x00000012)  returns 0x00 (0000ms, 0744ms total)
T2C04 005:961 JLINK_ClrBPEx(BPHandle = 0x00000013)  returns 0x00 (0000ms, 0744ms total)
T2C04 005:961 JLINK_ClrBPEx(BPHandle = 0x00000014)  returns 0x00 (0000ms, 0744ms total)
T2C04 005:961 JLINK_ReadMemU32(0xE000ED30, 0x0001 Items, ...) -- CPU_ReadMem(4 bytes @ 0xE000ED30) - Data: 03 00 00 00  returns 0x01 (0001ms, 0745ms total)
T2C04 005:962 JLINK_ReadMemU32(0xE0001028, 0x0001 Items, ...) -- CPU_ReadMem(4 bytes @ 0xE0001028) - Data: 00 00 00 00  returns 0x01 (0001ms, 0746ms total)
T2C04 005:963 JLINK_ReadMemU32(0xE0001038, 0x0001 Items, ...) -- CPU_ReadMem(4 bytes @ 0xE0001038) - Data: 00 02 00 00  returns 0x01 (0001ms, 0747ms total)
T2C04 005:964 JLINK_ReadMemU32(0xE0001048, 0x0001 Items, ...) -- CPU_ReadMem(4 bytes @ 0xE0001048) - Data: 00 00 00 00  returns 0x01 (0001ms, 0748ms total)
T2C04 005:965 JLINK_ReadMemU32(0xE0001058, 0x0001 Items, ...) -- CPU_ReadMem(4 bytes @ 0xE0001058) - Data: 00 00 00 00  returns 0x01 (0001ms, 0749ms total)
T2C04 005:966 JLINK_ReadReg(R0)  returns 0x05FA0500 (0000ms, 0749ms total)
T2C04 005:966 JLINK_ReadReg(R1)  returns 0xE000ED0C (0000ms, 0749ms total)
T2C04 005:966 JLINK_ReadReg(R2)  returns 0x00000000 (0000ms, 0749ms total)
T2C04 005:966 JLINK_ReadReg(R3)  returns 0x00000000 (0000ms, 0749ms total)
T2C04 005:966 JLINK_ReadReg(R4)  returns 0x00000000 (0000ms, 0749ms total)
T2C04 005:966 JLINK_ReadReg(R5)  returns 0x200002BC (0000ms, 0749ms total)
T2C04 005:966 JLINK_ReadReg(R6)  returns 0x00000000 (0000ms, 0749ms total)
T2C04 005:966 JLINK_ReadReg(R7)  returns 0x00000000 (0000ms, 0749ms total)
T2C04 005:966 JLINK_ReadReg(R8)  returns 0x00000000 (0000ms, 0749ms total)
T2C04 005:966 JLINK_ReadReg(R9)  returns 0x00000000 (0000ms, 0749ms total)
T2C04 005:966 JLINK_ReadReg(R10)  returns 0x00000000 (0000ms, 0749ms total)
T2C04 005:966 JLINK_ReadReg(R11)  returns 0x00000000 (0000ms, 0749ms total)
T2C04 005:966 JLINK_ReadReg(R12)  returns 0x00000000 (0000ms, 0749ms total)
T2C04 005:966 JLINK_ReadReg(R13 (SP))  returns 0x200008F0 (0000ms, 0749ms total)
T2C04 005:966 JLINK_ReadReg(R14)  returns 0x0800024B (0000ms, 0749ms total)
T2C04 005:966 JLINK_ReadReg(R15 (PC))  returns 0x0800024A (0000ms, 0749ms total)
T2C04 005:966 JLINK_ReadReg(XPSR)  returns 0x21000000 (0000ms, 0749ms total)
T2C04 005:966 JLINK_ReadReg(MSP)  returns 0x200008F0 (0000ms, 0749ms total)
T2C04 005:966 JLINK_ReadReg(PSP)  returns 0x20001000 (0000ms, 0749ms total)
T2C04 005:966 JLINK_ReadReg(CFBP)  returns 0x00000000 (0000ms, 0749ms total)
T2E0C 005:967 JLINK_ReadMemU32(0xE0001004, 0x0001 Items, ...) -- CPU_ReadMem(4 bytes @ 0xE0001004) - Data: CD 1A 00 00  returns 0x01 (0001ms, 0750ms total)
T2E0C 005:968 JLINK_ReadMem (0x200001E4, 0x0020 Bytes, ...) -- CPU_ReadMem(128 bytes @ 0x200001C0) -- Updating C cache (128 bytes @ 0x200001C0) -- Read from C cache (32 bytes @ 0x200001E4) - Data: 00 00 00 00 00 00 00 00 00 00 00 00 00 00 00 00 ...  returns 0x00 (0003ms, 0753ms total)
T2E0C 005:983 JLINK_ReadMem (0x0800024A, 0x0002 Bytes, ...) -- CPU_ReadMem(64 bytes @ 0x08000240) -- Updating C cache (64 bytes @ 0x08000240) -- Read from C cache (2 bytes @ 0x0800024A) - Data: 4F F4  returns 0x00 (0001ms, 0754ms total)
T2E0C 005:984 JLINK_ReadMem (0x0800024C, 0x003C Bytes, ...) -- CPU_ReadMem(64 bytes @ 0x08000280) -- Updating C cache (64 bytes @ 0x08000280) -- Read from C cache (60 bytes @ 0x0800024C) - Data: 16 50 01 F0 3A FD 4F F4 16 50 01 F0 8D FE 4F F4 ...  returns 0x00 (0002ms, 0756ms total)
T2C04 006:179 JLINK_Step() -- Read from C cache (2 bytes @ 0x0800024A) -- Read from C cache (2 bytes @ 0x0800024C) -- Simulated  returns 0x00 (0000ms, 0756ms total)
T2C04 006:179 JLINK_ReadReg(R15 (PC))  returns 0x0800024E (0000ms, 0756ms total)
T2C04 006:179 JLINK_ReadReg(XPSR)  returns 0x21000000 (0000ms, 0756ms total)
T2C04 006:179 JLINK_SetBPEx(Addr = 0x08000252, Type = 0xFFFFFFF2)  returns 0x00000015 (0000ms, 0756ms total)
T2C04 006:180 JLINK_SetBPEx(Addr = 0x08001BA0, Type = 0xFFFFFFF2)  returns 0x00000016 (0000ms, 0757ms total)
T2C04 006:180 JLINK_SetBPEx(Addr = 0x08001B80, Type = 0xFFFFFFF2)  returns 0x00000017 (0000ms, 0757ms total)
T2C04 006:180 JLINK_SetBPEx(Addr = 0x080008DA, Type = 0xFFFFFFF2)  returns 0x00000018 (0000ms, 0757ms total)
T2C04 006:180 JLINK_SetBPEx(Addr = 0x0800089E, Type = 0xFFFFFFF2)  returns 0x00000019 (0000ms, 0757ms total)
T2C04 006:180 JLINK_Go() -- CPU_WriteMem(4 bytes @ 0xE0002000) -- CPU_WriteMem(4 bytes @ 0xE0002000) -- CPU_WriteMem(4 bytes @ 0xE0002000) -- CPU_WriteMem(4 bytes @ 0xE0002000) -- CPU_WriteMem(4 bytes @ 0xE0002000) -- CPU_WriteMem(4 bytes @ 0xE0002008) -- CPU_WriteMem(4 bytes @ 0xE0001004) (0007ms, 0764ms total)
T2C04 006:288 JLINK_IsHalted()  returns TRUE (0005ms, 0769ms total)
T2C04 006:293 JLINK_Halt()  returns 0x00 (0000ms, 0764ms total)
T2C04 006:293 JLINK_IsHalted()  returns TRUE (0000ms, 0764ms total)
T2C04 006:293 JLINK_IsHalted()  returns TRUE (0000ms, 0764ms total)
T2C04 006:293 JLINK_IsHalted()  returns TRUE (0000ms, 0764ms total)
T2C04 006:293 JLINK_ReadReg(R15 (PC))  returns 0x08000252 (0000ms, 0764ms total)
T2C04 006:293 JLINK_ReadReg(XPSR)  returns 0x61000000 (0000ms, 0764ms total)
T2C04 006:293 JLINK_ClrBPEx(BPHandle = 0x00000015)  returns 0x00 (0000ms, 0764ms total)
T2C04 006:293 JLINK_ClrBPEx(BPHandle = 0x00000016)  returns 0x00 (0000ms, 0764ms total)
T2C04 006:293 JLINK_ClrBPEx(BPHandle = 0x00000017)  returns 0x00 (0000ms, 0764ms total)
T2C04 006:293 JLINK_ClrBPEx(BPHandle = 0x00000018)  returns 0x00 (0000ms, 0764ms total)
T2C04 006:293 JLINK_ClrBPEx(BPHandle = 0x00000019)  returns 0x00 (0000ms, 0764ms total)
T2C04 006:293 JLINK_ReadMemU32(0xE000ED30, 0x0001 Items, ...) -- CPU_ReadMem(4 bytes @ 0xE000ED30) - Data: 03 00 00 00  returns 0x01 (0001ms, 0765ms total)
T2C04 006:294 JLINK_ReadMemU32(0xE0001028, 0x0001 Items, ...) -- CPU_ReadMem(4 bytes @ 0xE0001028) - Data: 00 00 00 00  returns 0x01 (0001ms, 0766ms total)
T2C04 006:295 JLINK_ReadMemU32(0xE0001038, 0x0001 Items, ...) -- CPU_ReadMem(4 bytes @ 0xE0001038) - Data: 00 02 00 00  returns 0x01 (0001ms, 0767ms total)
T2C04 006:296 JLINK_ReadMemU32(0xE0001048, 0x0001 Items, ...) -- CPU_ReadMem(4 bytes @ 0xE0001048) - Data: 00 00 00 00  returns 0x01 (0001ms, 0768ms total)
T2C04 006:297 JLINK_ReadMemU32(0xE0001058, 0x0001 Items, ...) -- CPU_ReadMem(4 bytes @ 0xE0001058) - Data: 00 00 00 00  returns 0x01 (0001ms, 0769ms total)
T2C04 006:298 JLINK_ReadReg(R0)  returns 0x0000202C (0000ms, 0769ms total)
T2C04 006:298 JLINK_ReadReg(R1)  returns 0x00000001 (0000ms, 0769ms total)
T2C04 006:298 JLINK_ReadReg(R2)  returns 0x00000001 (0000ms, 0769ms total)
T2C04 006:298 JLINK_ReadReg(R3)  returns 0x00000002 (0000ms, 0769ms total)
T2C04 006:298 JLINK_ReadReg(R4)  returns 0x00000000 (0000ms, 0769ms total)
T2C04 006:298 JLINK_ReadReg(R5)  returns 0x200002BC (0000ms, 0769ms total)
T2C04 006:298 JLINK_ReadReg(R6)  returns 0x00000000 (0000ms, 0769ms total)
T2C04 006:298 JLINK_ReadReg(R7)  returns 0x00000000 (0000ms, 0769ms total)
T2C04 006:298 JLINK_ReadReg(R8)  returns 0x00000000 (0000ms, 0769ms total)
T2C04 006:298 JLINK_ReadReg(R9)  returns 0x00000000 (0000ms, 0769ms total)
T2C04 006:298 JLINK_ReadReg(R10)  returns 0x00000000 (0000ms, 0769ms total)
T2C04 006:298 JLINK_ReadReg(R11)  returns 0x00000000 (0000ms, 0769ms total)
T2C04 006:298 JLINK_ReadReg(R12)  returns 0x00000000 (0000ms, 0769ms total)
T2C04 006:298 JLINK_ReadReg(R13 (SP))  returns 0x200008F0 (0000ms, 0769ms total)
T2C04 006:298 JLINK_ReadReg(R14)  returns 0x08001D5B (0000ms, 0769ms total)
T2C04 006:298 JLINK_ReadReg(R15 (PC))  returns 0x08000252 (0000ms, 0769ms total)
T2C04 006:298 JLINK_ReadReg(XPSR)  returns 0x61000000 (0000ms, 0769ms total)
T2C04 006:298 JLINK_ReadReg(MSP)  returns 0x200008F0 (0000ms, 0769ms total)
T2C04 006:298 JLINK_ReadReg(PSP)  returns 0x20001000 (0000ms, 0769ms total)
T2C04 006:298 JLINK_ReadReg(CFBP)  returns 0x00000000 (0000ms, 0769ms total)
T2E0C 006:299 JLINK_ReadMemU32(0xE0001004, 0x0001 Items, ...) -- CPU_ReadMem(4 bytes @ 0xE0001004) - Data: E6 20 00 00  returns 0x01 (0000ms, 0769ms total)
T2E0C 006:300 JLINK_ReadMem (0x200001E4, 0x0020 Bytes, ...) -- CPU_ReadMem(128 bytes @ 0x200001C0) -- Updating C cache (128 bytes @ 0x200001C0) -- Read from C cache (32 bytes @ 0x200001E4) - Data: 00 00 00 00 00 00 00 00 00 00 00 00 00 00 00 00 ...  returns 0x00 (0002ms, 0771ms total)
T2E0C 006:316 JLINK_ReadMem (0x0800024A, 0x0002 Bytes, ...) -- CPU_ReadMem(64 bytes @ 0x08000240) -- Updating C cache (64 bytes @ 0x08000240) -- Read from C cache (2 bytes @ 0x0800024A) - Data: 4F F4  returns 0x00 (0002ms, 0773ms total)
